#  HZ   S   RI   R     50.00 
! Rohde & Schwarz Vector Network Analyzer 
! Rohde-Schwarz,ZNBT8-16Port,1318700624102139,2.92
! Created: UTC 6/30/2020, 11:52:52 PM
! freq[Hz]                re:S11                  im:S11                  re:S12                  im:S12                  re:S13                  im:S13                  re:S14                  im:S14
!                         re:S15                  im:S15                  re:S16                  im:S16                  re:S17                  im:S17                  re:S18                  im:S18
!                         re:S21                  im:S21                  re:S22                  im:S22                  re:S23                  im:S23                  re:S24                  im:S24
!                         re:S25                  im:S25                  re:S26                  im:S26                  re:S27                  im:S27                  re:S28                  im:S28
!                         re:S31                  im:S31                  re:S32                  im:S32                  re:S33                  im:S33                  re:S34                  im:S34
!                         re:S35                  im:S35                  re:S36                  im:S36                  re:S37                  im:S37                  re:S38                  im:S38
!                         re:S41                  im:S41                  re:S42                  im:S42                  re:S43                  im:S43                  re:S44                  im:S44
!                         re:S45                  im:S45                  re:S46                  im:S46                  re:S47                  im:S47                  re:S48                  im:S48
!                         re:S51                  im:S51                  re:S52                  im:S52                  re:S53                  im:S53                  re:S54                  im:S54
!                         re:S55                  im:S55                  re:S56                  im:S56                  re:S57                  im:S57                  re:S58                  im:S58
!                         re:S61                  im:S61                  re:S62                  im:S62                  re:S63                  im:S63                  re:S64                  im:S64
!                         re:S65                  im:S65                  re:S66                  im:S66                  re:S67                  im:S67                  re:S68                  im:S68
!                         re:S71                  im:S71                  re:S72                  im:S72                  re:S73                  im:S73                  re:S74                  im:S74
!                         re:S75                  im:S75                  re:S76                  im:S76                  re:S77                  im:S77                  re:S78                  im:S78
!                         re:S81                  im:S81                  re:S82                  im:S82                  re:S83                  im:S83                  re:S84                  im:S84
!                         re:S85                  im:S85                  re:S86                  im:S86                  re:S87                  im:S87                  re:S88                  im:S88
! 
 3.970600000000000E8     7.311776515456773E-1    2.272371659508739E-1   -9.692041752073943E-2    7.082478251737975E-2   -1.082155664392613E-2    6.536611484448844E-2    2.571253868202256E-2    1.823040863932919E-2
                         3.072765929300089E-2   -2.202429511396776E-3    2.030295904372500E-2    1.879030875143174E-2   -2.498049187481030E-2    6.825225922939780E-2   -1.098892777249553E-1    8.331656742837346E-2
                        -9.695991994329331E-2    7.130388684272675E-2    7.342071579820726E-1    3.252307618280561E-1   -8.294083701782491E-2    5.018873845446120E-2    4.472312110199523E-3    6.477163036429529E-2
                         2.342455793227312E-2    1.854913206111696E-2    1.800451549610871E-2    3.250246400058481E-4    1.021433415496665E-2    2.846229105438896E-2   -2.309282473940984E-2    6.885900054219009E-2
                        -1.032600137585745E-2    6.543534044526257E-2   -8.301023834835834E-2    4.956772956072034E-2    7.413704492965940E-1    2.253023862814793E-1   -9.331933389704633E-2    1.086171147298490E-1
                         5.281402455611492E-3    6.774418967622907E-2    1.273741775164080E-2    3.078731410307071E-4    1.395985731191885E-2    1.703670469230038E-3    1.633202402629263E-2    2.590510187531248E-2
                         2.588504955260357E-2    1.822869622649220E-2    3.371223879218631E-3    6.511258970371124E-2   -9.368625593482943E-2    1.079224429670560E-1    7.002220263664515E-1    1.923973176693857E-1
                        -8.044581272277294E-2    1.418646898600331E-1    1.951082009185122E-2    1.837488761459284E-2    1.842330890838131E-2   -1.940672606945079E-2    2.260471962920030E-2   -6.604444040233624E-3
                         2.991699886065386E-2   -1.373828985966250E-3    2.394548914245299E-2    1.934521364087567E-2    5.466291119347919E-3    6.848946074906004E-2   -8.051444356576924E-2    1.412316441989492E-1
                         6.552435698906843E-1    1.516054578245968E-1   -5.711415090214451E-2    1.072350109033684E-1    1.813505116633529E-2    2.225176085654212E-2    2.980908904875134E-2   -3.643709842963803E-3
                         1.976498610466491E-2    1.915218242967059E-2    1.795750209013968E-2    5.902893894194362E-4    1.300449077884520E-2    6.779592872581874E-4    1.878828252836130E-2    1.812245725182267E-2
                        -5.649469095539349E-2    1.072027880200128E-1    7.298465797437527E-1    1.557347735770747E-1   -7.215733358131087E-2    1.275829735156462E-1    3.121745106322559E-3    5.431616489200316E-2
                        -2.538283329048567E-2    6.775949400747915E-2    9.382256879507795E-3    2.701976325067000E-2    1.386001962524745E-2    1.066887344792081E-3    1.927494259939079E-2   -1.867275341129922E-2
                         1.865656280515501E-2    2.209055427949535E-2   -7.211411554977040E-2    1.275084737725516E-1    7.496181769159171E-1    2.418651472667279E-1   -1.037827465786066E-1    8.571520830961085E-2
                        -1.091359032223455E-1    8.321673397450446E-2   -2.403708097276211E-2    6.869412780388705E-2    1.529471997302740E-2    2.638602730734363E-2    2.299437453832127E-2   -5.652709568385789E-3
                         2.976834067669898E-2   -3.272662304228689E-3    3.804560084382067E-3    5.576993759999861E-2   -1.037365238579054E-1    8.640125099855398E-2    7.388670363702335E-1    2.590796613304225E-1

 3.971600000000000E8     7.311458790116237E-1    2.236110676421694E-1   -9.719398884127342E-2    7.243946415444567E-2   -1.058676359081972E-2    6.567218406589546E-2    2.605073139736664E-2    1.833193531996702E-2
                         3.017168129788106E-2   -1.496374932910368E-3    2.120307518693044E-2    1.876821657704824E-2   -2.475744396416309E-2    6.874574329899640E-2   -1.093442749305572E-1    8.475228417538477E-2
                        -9.634834822148473E-2    7.134440553654062E-2    7.334481191208265E-1    3.210486056538277E-1   -8.262572569454818E-2    5.178506292757249E-2    5.151171719213616E-3    6.506351534533353E-2
                         2.413411449329034E-2    1.889991597695012E-2    1.797266299481620E-2    7.161143170606441E-4    1.093956025403672E-2    2.702361711471485E-2   -2.442835252561346E-2    6.876958361600075E-2
                        -1.022363980141396E-2    6.461300413664611E-2   -8.307025910768985E-2    5.186227978242673E-2    7.417594978304560E-1    2.178284685354907E-1   -9.346987655006162E-2    1.089136583604632E-1
                         6.217842430211301E-3    6.993571533692912E-2    1.253811450199712E-2    4.786037448388148E-4    1.409353893702847E-2    8.290403278004434E-4    1.610182024081654E-2    2.764172864240878E-2
                         2.605647594399938E-2    1.816596332091804E-2    5.153901128813913E-3    6.544450960828499E-2   -9.377261394001751E-2    1.102673226000055E-1    6.996988053880781E-1    1.878959874266631E-1
                        -7.948367363703111E-2    1.413474911618088E-1    1.801977647981704E-2    1.884830114656667E-2    1.841792679020218E-2   -1.806745247206129E-2    2.188038269432165E-2   -5.098131718775333E-3
                         3.043032443850021E-2   -1.691947794567741E-3    2.390387445014907E-2    1.923959182584443E-2    5.580388204975299E-3    6.883597848656411E-2   -7.864025167246974E-2    1.415443148788480E-1
                         6.529622347695239E-1    1.490138518252141E-1   -5.618793533859009E-2    1.093502978957258E-1    1.877781192969953E-2    2.304851725116972E-2    2.950178378612198E-2   -3.690304187402938E-3
                         2.109863837688687E-2    1.928362875492421E-2    1.802133297671918E-2    4.617729249769772E-4    1.287026131323306E-2    2.638006347378289E-4    1.861795395557541E-2    1.827202374840703E-2
                        -5.564438954326045E-2    1.083330994945539E-1    7.317663933174516E-1    1.498589217907719E-1   -7.149032004800096E-2    1.290843336498957E-1    3.896084489985597E-3    5.603996980723577E-2
                        -2.519442204467886E-2    6.784738039883055E-2    9.804596277368906E-3    2.728748927801453E-2    1.402063059859651E-2    1.146190236636343E-3    1.854536130079238E-2   -1.928100057998881E-2
                         1.899892150064475E-2    2.270719935133748E-2   -7.183422433942617E-2    1.282758417655434E-1    7.506588386801070E-1    2.368942258996275E-1   -1.025491863709280E-1    8.793746850226694E-2
                        -1.084176854851674E-1    8.381726776108613E-2   -2.365512007515925E-2    6.950634350683556E-2    1.542679715843448E-2    2.683241556978235E-2    2.335952323222244E-2   -6.421266295742601E-3
                         2.938989607100915E-2   -3.994737499076649E-3    4.503834890753731E-3    5.545897609162635E-2   -1.028273300138683E-1    8.712170512259952E-2    7.406172879036381E-1    2.557553906975939E-1

 3.972600000000000E8     7.330100393884023E-1    2.171561459036597E-1   -9.679862968208211E-2    7.297156918976508E-2   -9.720099048486294E-3    6.482730667707831E-2    2.519271047527295E-2    1.807597718777816E-2
                         3.111897412570179E-2   -2.643617373316682E-3    2.146402263301043E-2    1.893825863878151E-2   -2.439198861071217E-2    6.872096957454081E-2   -1.092182408858293E-1    8.628735269602342E-2
                        -9.649493306073768E-2    7.268562364864040E-2    7.354126857264767E-1    3.178787646810132E-1   -8.225528835054032E-2    5.303732400584909E-2    4.965354836431346E-3    6.456827238373897E-2
                         2.348314405089446E-2    1.822199018429945E-2    1.773647113004706E-2    6.011611514138498E-4    1.087572215178767E-2    2.802952934602827E-2   -2.381091804615687E-2    6.954574129053448E-2
                        -9.427397355341675E-3    6.537847964280832E-2   -8.411470097189272E-2    5.259568003986797E-2    7.428803450758692E-1    2.138491019038752E-1   -9.413327780017014E-2    1.102691233593904E-1
                         5.967610320110842E-3    6.875333843217521E-2    1.289189843672939E-2    2.815590569496830E-4    1.348461431788947E-2    1.159826640890486E-3    1.598446954672271E-2    2.679344630032719E-2
                         2.629801677240983E-2    1.771252070800762E-2    4.248737309772239E-3    6.469175285503669E-2   -9.347647817339791E-2    1.106072620138235E-1    7.005678666079301E-1    1.856056056821959E-1
                        -7.886350437070626E-2    1.429279514736003E-1    1.907372329553471E-2    1.858584069686872E-2    1.868687053814133E-2   -1.923956243160598E-2    2.158811070221208E-2   -5.694073450219174E-3
                         3.034603605986088E-2   -1.759574422018917E-3    2.454405682260360E-2    1.883914788238633E-2    5.248011343646171E-3    6.872428523040416E-2   -7.875732794708902E-2    1.423429798171867E-1
                         6.541762266508986E-1    1.437348761619468E-1   -5.594710351038583E-2    1.094072014023817E-1    1.976993988818920E-2    2.320412790782238E-2    2.990086550655522E-2   -4.192401178709057E-3
                         2.080530301893379E-2    1.828723141683010E-2    1.816623135623616E-2    6.845903666715372E-4    1.288413925639790E-2    2.364840689353777E-4    1.900191645574434E-2    1.768683097844117E-2
                        -5.583821039400674E-2    1.094711277489204E-1    7.304058908663078E-1    1.467507580786134E-1   -7.027550503393801E-2    1.287813121821634E-1    4.680589720570838E-3    5.510794548516147E-2
                        -2.382324524100817E-2    6.937173023561191E-2    1.060283723441279E-2    2.815100768933804E-2    1.384973625251564E-2    1.062386225800269E-3    1.877659620489010E-2   -1.918792414699096E-2
                         1.950118825014461E-2    2.244234552561374E-2   -7.108706403804239E-2    1.294306911450022E-1    7.507698681015566E-1    2.327436214960322E-1   -1.043860563808362E-1    8.864393186507771E-2
                        -1.092343276307786E-1    8.658382387881644E-2   -2.393825939529978E-2    6.982152166781493E-2    1.667374219949514E-2    2.752985014974722E-2    2.188759158480801E-2   -5.351264486147070E-3
                         2.929808707919697E-2   -3.895841534122070E-3    5.047748488683005E-3    5.583455580682224E-2   -1.030115736914794E-1    8.841927026536649E-2    7.405874325772283E-1    2.505786382100014E-1

 3.973600000000000E8     7.327397589554839E-1    2.132513326044480E-1   -9.675480507947369E-2    7.374589645242895E-2   -9.153297587898419E-3    6.634854009893415E-2    2.588758163726340E-2    1.790612095393999E-2
                         3.079273766991067E-2   -2.391321176331258E-3    2.209360751211462E-2    1.904290646122460E-2   -2.421411803837425E-2    6.879172793052188E-2   -1.095536545419521E-1    8.748168494001957E-2
                        -9.676410359886339E-2    7.462988442045813E-2    7.379850368640730E-1    3.109524457886259E-1   -8.455392865891265E-2    5.319923744979015E-2    5.756529955830854E-3    6.537421533085144E-2
                         2.433982274302534E-2    1.874542824773264E-2    1.750840667664168E-2   -2.653731772185081E-4    1.041300584095148E-2    2.775961367532303E-2   -2.323414602599564E-2    7.024531759581203E-2
                        -9.888756498137119E-3    6.527404187801085E-2   -8.370493571661315E-2    5.346349436957818E-2    7.441600913333615E-1    2.111888415529723E-1   -9.371263611643745E-2    1.118847348923601E-1
                         7.279078925949102E-3    6.897276179631302E-2    1.285174795063497E-2    4.290204153399095E-4    1.407461155362407E-2    1.462460036257624E-3    1.642343896400908E-2    2.662137375090084E-2
                         2.536059696636731E-2    1.802448710152060E-2    5.399775724450627E-3    6.471998346388311E-2   -9.289246632918269E-2    1.109851890082855E-1    6.988094533399857E-1    1.807577396205541E-1
                        -7.885053518645201E-2    1.436860468831153E-1    1.958408932458838E-2    1.893244518052042E-2    1.857742676159164E-2   -1.925995909900305E-2    2.194085679615570E-2   -5.581449016345175E-3
                         3.092981241334927E-2   -2.630487686039588E-3    2.402556060416294E-2    1.828173133991081E-2    6.196750451762146E-3    6.783567662655431E-2   -7.878747078371511E-2    1.430497733257731E-1
                         6.552929281640687E-1    1.428945629004440E-1   -5.588634268856514E-2    1.106365831938517E-1    1.911614812263423E-2    2.367256661187473E-2    2.964630479277592E-2   -3.766147865349701E-3
                         2.209944709307924E-2    1.860520169870660E-2    1.806496739827760E-2    7.530471430203988E-4    1.282165820047582E-2    3.154085351147803E-4    1.964778465726215E-2    1.751738213710811E-2
                        -5.586032782489953E-2    1.097359179534514E-1    7.316909886915221E-1    1.425808876232021E-1   -7.028625678913078E-2    1.300593129898694E-1    4.943546686706919E-3    5.572118102202531E-2
                        -2.345153383693326E-2    6.839232221416823E-2    9.732993866868139E-3    2.700597767543810E-2    1.399273818374896E-2    9.921535511129825E-4    1.824533863094766E-2   -1.903481816843254E-2
                         1.907205299584063E-2    2.302007280837678E-2   -7.055576727541196E-2    1.295013559259752E-1    7.504603213830395E-1    2.299816167328548E-1   -1.022640619795509E-1    8.918726369622429E-2
                        -1.100354752070641E-1    8.731341694926524E-2   -2.295593895826117E-2    7.007269848036377E-2    1.555554895872674E-2    2.768600949135317E-2    2.236648835466467E-2   -5.102199425333558E-3
                         3.002619281084138E-2   -3.650537881309909E-3    5.401419431931605E-3    5.628775459364679E-2   -1.027664980489692E-1    8.935076721209567E-2    7.410561747565920E-1    2.461123093549871E-1

 3.974600000000000E8     7.339975587696400E-1    2.105346537797796E-1   -9.762133978043056E-2    7.585896610516274E-2   -9.916742792362928E-3    6.500688292834309E-2    2.572318856517833E-2    1.770636122590757E-2
                         3.074823180384753E-2   -1.480577786278478E-3    2.184439320366458E-2    1.827347296981650E-2   -2.341644223001991E-2    6.828988939375782E-2   -1.093970917014434E-1    8.919759535975121E-2
                        -9.697336609892616E-2    7.568407662470834E-2    7.397928043273165E-1    3.072375021316194E-1   -8.474277377728816E-2    5.490879862101694E-2    6.048567524478023E-3    6.458013138756795E-2
                         2.433049253196077E-2    1.920079967005100E-2    1.807078185352118E-2    1.641509907773046E-3    1.101448692533728E-2    2.793177523228331E-2   -2.299842563115851E-2    6.989100950027194E-2
                        -1.057203099159059E-2    6.524383105156090E-2   -8.420112609960477E-2    5.466089875500781E-2    7.450300982686200E-1    2.040748372719720E-1   -9.362534366103253E-2    1.128185263009715E-1
                         6.439121552035564E-3    6.838470046102602E-2    1.303542528557557E-2    4.474682218007388E-4    1.362927255573949E-2    1.977765605298425E-3    1.657925788474241E-2    2.629143396009999E-2
                         2.611393353209452E-2    1.839544945140623E-2    6.220133749187369E-3    6.566380693480411E-2   -9.175327098815023E-2    1.123635149131182E-1    7.007777328295033E-1    1.774078854464469E-1
                        -7.948677694619491E-2    1.440294508208354E-1    1.913159847365065E-2    1.840905229211893E-2    1.784835104331855E-2   -1.910941920980913E-2    2.286660025170973E-2   -5.804604604347217E-3
                         3.035374448609708E-2   -2.296145143809377E-3    2.329318110329088E-2    1.842705403408051E-2    6.255657666067012E-3    6.807502944024976E-2   -7.806214494726264E-2    1.447713394131299E-1
                         6.548071736198089E-1    1.386895351320569E-1   -5.610761337169858E-2    1.112985132694343E-1    1.977913498821575E-2    2.371195567435693E-2    3.071163980197539E-2   -4.263168395445997E-3
                         2.199290474853148E-2    1.897978446792760E-2    1.819714027137014E-2    1.098965186161994E-3    1.269820880096630E-2    1.427210039315133E-4    1.849911348132871E-2    1.871480942650226E-2
                        -5.684417054352319E-2    1.113845178644090E-1    7.319730009243765E-1    1.388852232761320E-1   -7.018958482523553E-2    1.308425672360411E-1    4.680507562420726E-3    5.564420653463510E-2
                        -2.474436859761766E-2    6.868302325241406E-2    1.101732010435317E-2    2.803533066213542E-2    1.408909193646679E-2    1.105561477085439E-3    1.726704767181937E-2   -1.816911049453069E-2
